
**** 03/25/25 20:14:28 ******* PSpice Lite (March 2016) ******* ID# 10813 ****

 Kolos1


 ****     CIRCUIT DESCRIPTION


******************************************************************************




R1 4 3 30
R2 4 5 6
R3 2 7 8
R4 4 0 30
R5 6 4 15
R6 2 1 40

L1 1 0 10u
C1 6 0 1u

V1 2 3 30
V2 0 5 200
V3 0 7 60

VA 2 6 0

H1 4 0 VA 20

.DC V1 30 30 1
.TF V(2) V1
.PRINT DC W(V1) W(V2) W(V3) I(R6) W(R6) V(2)
.END

**** 03/25/25 20:14:28 ******* PSpice Lite (March 2016) ******* ID# 10813 ****

 Kolos1


 ****     DC TRANSFER CURVES               TEMPERATURE =   27.000 DEG C


******************************************************************************



  V1          W(V1)       W(V2)       W(V3)       I(R6)       W(R6)       

   3.000E+01  -4.444E+01  -6.025E+03  -1.972E+02  -8.426E-01   2.840E+01



**** 03/25/25 20:14:28 ******* PSpice Lite (March 2016) ******* ID# 10813 ****

 Kolos1


 ****     DC TRANSFER CURVES               TEMPERATURE =   27.000 DEG C


******************************************************************************



  V1          V(2)        

   3.000E+01  -3.370E+01



**** 03/25/25 20:14:28 ******* PSpice Lite (March 2016) ******* ID# 10813 ****

 Kolos1


 ****     SMALL SIGNAL BIAS SOLUTION       TEMPERATURE =   27.000 DEG C


******************************************************************************



 NODE   VOLTAGE     NODE   VOLTAGE     NODE   VOLTAGE     NODE   VOLTAGE


(    1)    0.0000  (    2)  -33.7040  (    3)  -63.7040  (    4)  -19.2590      

(    5) -200.0000  (    6)  -33.7040  (    7)  -60.0000  




    VOLTAGE SOURCE CURRENTS
    NAME         CURRENT

    V1          -1.481E+00
    V2          -3.012E+01
    V3          -3.287E+00
    VA          -9.630E-01

    TOTAL POWER DISSIPATION   6.27E+03  WATTS






 ****     SMALL-SIGNAL CHARACTERISTICS


      V(2)/V1 =  1.728E-01

      INPUT RESISTANCE AT V1 =  3.240E+01

      OUTPUT RESISTANCE AT V(2) =  5.185E+00


          JOB CONCLUDED

**** 03/25/25 20:14:28 ******* PSpice Lite (March 2016) ******* ID# 10813 ****

 Kolos1


 ****     JOB STATISTICS SUMMARY


******************************************************************************



  Total job time (using Solver 1)   =         .03
