
**** 03/22/25 18:20:34 ******* PSpice Lite (March 2016) ******* ID# 10813 ****

 Lab7


 ****     CIRCUIT DESCRIPTION


******************************************************************************




.MODEL VSW VSWITCH RON=1m ROFF=1G VOFF=0 VON=1

VT 4 0 PULSE(0 1 1m)
RT 4 0 10

C1 1 0 1u IC=5
R1 2 1 20
S1 3 2 4 0 VSW
L1 3 0 10m

.TRAN 0 10m 0 100n
.PROBE
.END

**** 03/22/25 18:20:34 ******* PSpice Lite (March 2016) ******* ID# 10813 ****

 Lab7


 ****     Voltage Controlled Switch MODEL PARAMETERS


******************************************************************************




               VSW             
         RON    1.000000E-03 
        ROFF    1.000000E+09 
         VON    1            
        VOFF    0            


**** 03/22/25 18:20:34 ******* PSpice Lite (March 2016) ******* ID# 10813 ****

 Lab7


 ****     INITIAL TRANSIENT SOLUTION       TEMPERATURE =   27.000 DEG C


******************************************************************************



 NODE   VOLTAGE     NODE   VOLTAGE     NODE   VOLTAGE     NODE   VOLTAGE


(    1)    5.0000  (    2)    5.0000  (    3)-888.2E-18  (    4)    0.0000  




    VOLTAGE SOURCE CURRENTS
    NAME         CURRENT

    VT           0.000E+00

    TOTAL POWER DISSIPATION   0.00E+00  WATTS



          JOB CONCLUDED

**** 03/22/25 18:20:34 ******* PSpice Lite (March 2016) ******* ID# 10813 ****

 Lab7


 ****     JOB STATISTICS SUMMARY


******************************************************************************



  Total job time (using Solver 1)   =         .69
