
**** 03/22/25 18:27:25 ******* PSpice Lite (March 2016) ******* ID# 10813 ****

 Lab7


 ****     CIRCUIT DESCRIPTION


******************************************************************************




.MODEL VSW VSWITCH RON=1m ROFF=1G VOFF=0 VON=1

VT 6 0 PULSE(0 1 0.5m)
RT 6 0 10

C1 1 0 100n
R1 2 1 10
S1 2 4 6 0 VSW
L1 4 0 1m
S2 3 4 0 6 VSW
R2 5 3 2k
V1 5 0 2

.TRAN 0.4m 1m 0 10n
.PROBE
.END

**** 03/22/25 18:27:25 ******* PSpice Lite (March 2016) ******* ID# 10813 ****

 Lab7


 ****     Voltage Controlled Switch MODEL PARAMETERS


******************************************************************************




               VSW             
         RON    1.000000E-03 
        ROFF    1.000000E+09 
         VON    1            
        VOFF    0            


**** 03/22/25 18:27:25 ******* PSpice Lite (March 2016) ******* ID# 10813 ****

 Lab7


 ****     INITIAL TRANSIENT SOLUTION       TEMPERATURE =   27.000 DEG C


******************************************************************************



 NODE   VOLTAGE     NODE   VOLTAGE     NODE   VOLTAGE     NODE   VOLTAGE


(    1)    0.0000  (    2)    0.0000  (    3)    2.0000  (    4)    0.0000      

(    5)    2.0000  (    6)    0.0000  




    VOLTAGE SOURCE CURRENTS
    NAME         CURRENT

    VT           0.000E+00
    V1          -2.000E-09

    TOTAL POWER DISSIPATION   4.00E-09  WATTS



          JOB CONCLUDED

**** 03/22/25 18:27:25 ******* PSpice Lite (March 2016) ******* ID# 10813 ****

 Lab7


 ****     JOB STATISTICS SUMMARY


******************************************************************************



  Total job time (using Solver 1)   =        1.00
