
**** 04/07/25 14:17:17 ******* PSpice Lite (March 2016) ******* ID# 10813 ****

 KOLOS2A


 ****     CIRCUIT DESCRIPTION


******************************************************************************




.LIB "EVAL_TOS.LIB"


V1 VX 0 SIN(0 169.2 60)

RX VX VIN 1P

XTRAFO VIN 0 OUTP 0 OUTN TX_I

D1 OUTP 1 D1N4148
D2 OUTN 1 D1N4148

C1 1 0 520U
R1 1 2 191
XZENER 0 2 ZENER_I

RL 2 0 150

.TRAN 0 100M 0 10U
.PROBE
.END

**** 04/07/25 14:17:17 ******* PSpice Lite (March 2016) ******* ID# 10813 ****

 KOLOS2A


 ****     Diode MODEL PARAMETERS


******************************************************************************




               D1N4148         XZENER.mA_DIODA 
          IS    2.682000E-09  100.000000E-12 
           N    1.836           1.7          
         ISR    1.565000E-09                 
         IKF     .04417                      
          BV  100                            
         IBV  100.000000E-06                 
          RS     .5664                       
          TT   11.540000E-09                 
         CJO    4.000000E-12                 
          VJ     .5                          
           M     .3333                       


               XZENER.idealna_DIODA 
          IS  100.000000E-12 
           N     .01         


**** 04/07/25 14:17:17 ******* PSpice Lite (March 2016) ******* ID# 10813 ****

 KOLOS2A


 ****     INITIAL TRANSIENT SOLUTION       TEMPERATURE =   27.000 DEG C


******************************************************************************



 NODE   VOLTAGE     NODE   VOLTAGE     NODE   VOLTAGE     NODE   VOLTAGE


(    1) 15.73E-09  (    2) 15.73E-09  (   VX)    0.0000  (  VIN)    0.0000      

( OUTN)    0.0000  ( OUTP) 1.113E-24  (XZENER.Z3)    4.9000                     

(XZENER.Z4)-1.049E-09                 




    VOLTAGE SOURCE CURRENTS
    NAME         CURRENT

    V1           0.000E+00
    XZENER.VZ   -1.049E-10

    TOTAL POWER DISSIPATION   5.14E-10  WATTS



          JOB CONCLUDED

**** 04/07/25 14:17:17 ******* PSpice Lite (March 2016) ******* ID# 10813 ****

 KOLOS2A


 ****     JOB STATISTICS SUMMARY


******************************************************************************



  Total job time (using Solver 1)   =         .74
