
**** 04/27/25 23:38:32 ******* PSpice Lite (March 2016) ******* ID# 10813 ****

 KOLOS B


 ****     CIRCUIT DESCRIPTION


******************************************************************************




.LIB "EVAL_TOS.LIB"

.PARAM RES = 100K
.PARAM AMP = 5.8M
.PARAM W = 100U

VP VDD 0 DC 5

M1 1 1 VDD VDD PMOS0P5 W=10U L=0.5U
M2 OUT 1 VDD VDD PMOS0P5 W=10U L=0.5U

M3 2 2 0 0 NMOS0P5 W=10U L=0.5U
M4 OUT IN 0 0 NMOS0P5 W={W} L=0.5U

R1 1 2 {RES}

*VIN IN 0 DC 736.012M AC 1 SIN(736.012M, {AMP}, 100K)
VIN IN 0 PULSE(5 0 1U)
C1 OUT 0 2N
*KV=-260.472
*.DC VIN 0 5 100U
*.STEP LIN PARAM RES 1K 100K 1K

*.DC VIN 700M 750M 1U
*.AC DEC 10 1 1G
.TRAN 0 20U 0 1N
*.STEP LIN PARAM AMP 100U 10M 100U
*.FOUR 100K V[OUT]

.STEP LIN PARAM W 50U 150U 1U

.PROBE
.END

WARNING(ORPSIM-15676): LAMBDA for MOSFET model PMOS0P5 is unusually large and might cause non-convergence

**** 04/27/25 23:38:32 ******* PSpice Lite (March 2016) ******* ID# 10813 ****

 KOLOS B


 ****     MOSFET MODEL PARAMETERS


******************************************************************************




               PMOS0P5         NMOS0P5         
               PMOS            NMOS            
       LEVEL    1               1            
           L  100.000000E-06  100.000000E-06 
           W  100.000000E-06  100.000000E-06 
          LD   90.000000E-09   80.000000E-09 
         VTO    -.8              .7          
          KP   41.801210E-06  167.204900E-06 
       GAMMA     .45             .5          
         PHI     .75             .8          
      LAMBDA     .2              .1          
          IS   10.000000E-15   10.000000E-15 
          JS    5.000000E-09   10.000000E-09 
          PB     .9              .9          
        PBSW     .9              .9          
          CJ  930.000000E-06  570.000000E-06 
        CJSW  170.000000E-12  120.000000E-12 
        MJSW     .35             .4          
        CGSO  350.000000E-12  400.000000E-12 
        CGDO  350.000000E-12  400.000000E-12 
        CGBO  380.000000E-12  380.000000E-12 
         TOX    9.500000E-09    9.500000E-09 
          XJ    0               0            
          UO  115             460            
       UCRIT   10.000000E+03   10.000000E+03 
      DIOMOD    1               1            
         VFB    0               0            
        LETA    0               0            
        WETA    0               0            
          U0    0               0            
        TEMP    0               0            
         VDD    5               5            
       XPART    0               0            


WARNING(ORPSIM-15676): LAMBDA for MOSFET model PMOS0P5 is unusually large and might cause non-convergence

WARNING(ORPSIM-15676): LAMBDA for MOSFET model PMOS0P5 is unusually large and might cause non-convergence

**** 04/27/25 23:38:32 ******* PSpice Lite (March 2016) ******* ID# 10813 ****

 KOLOS B


 ****     INITIAL TRANSIENT SOLUTION       TEMPERATURE =   27.000 DEG C

 ****     CURRENT STEP                     PARAM W =   50.0000E-06


******************************************************************************



 NODE   VOLTAGE     NODE   VOLTAGE     NODE   VOLTAGE     NODE   VOLTAGE


(    1)    3.9983  (    2)     .8095  (   IN)    5.0000  (  OUT) 502.5E-06      

(  VDD)    5.0000  




    VOLTAGE SOURCE CURRENTS
    NAME         CURRENT

    VP          -8.502E-05
    VIN          0.000E+00

    TOTAL POWER DISSIPATION   4.25E-04  WATTS


WARNING(ORPSIM-15676): LAMBDA for MOSFET model PMOS0P5 is unusually large and might cause non-convergence

WARNING(ORPSIM-15676): LAMBDA for MOSFET model PMOS0P5 is unusually large and might cause non-convergence

**** 04/27/25 23:38:32 ******* PSpice Lite (March 2016) ******* ID# 10813 ****

 KOLOS B


 ****     INITIAL TRANSIENT SOLUTION       TEMPERATURE =   27.000 DEG C

 ****     CURRENT STEP                     PARAM W =   51.0000E-06


******************************************************************************



 NODE   VOLTAGE     NODE   VOLTAGE     NODE   VOLTAGE     NODE   VOLTAGE


(    1)    3.9983  (    2)     .8095  (   IN)    5.0000  (  OUT) 492.6E-06      

(  VDD)    5.0000  




    VOLTAGE SOURCE CURRENTS
    NAME         CURRENT

    VP          -8.502E-05
    VIN          0.000E+00

    TOTAL POWER DISSIPATION   4.25E-04  WATTS


WARNING(ORPSIM-15676): LAMBDA for MOSFET model PMOS0P5 is unusually large and might cause non-convergence

WARNING(ORPSIM-15676): LAMBDA for MOSFET model PMOS0P5 is unusually large and might cause non-convergence

**** 04/27/25 23:38:32 ******* PSpice Lite (March 2016) ******* ID# 10813 ****

 KOLOS B


 ****     INITIAL TRANSIENT SOLUTION       TEMPERATURE =   27.000 DEG C

 ****     CURRENT STEP                     PARAM W =   52.0000E-06


******************************************************************************



 NODE   VOLTAGE     NODE   VOLTAGE     NODE   VOLTAGE     NODE   VOLTAGE


(    1)    3.9983  (    2)     .8095  (   IN)    5.0000  (  OUT) 483.2E-06      

(  VDD)    5.0000  




    VOLTAGE SOURCE CURRENTS
    NAME         CURRENT

    VP          -8.502E-05
    VIN          0.000E+00

    TOTAL POWER DISSIPATION   4.25E-04  WATTS


WARNING(ORPSIM-15676): LAMBDA for MOSFET model PMOS0P5 is unusually large and might cause non-convergence

WARNING(ORPSIM-15676): LAMBDA for MOSFET model PMOS0P5 is unusually large and might cause non-convergence

**** 04/27/25 23:38:32 ******* PSpice Lite (March 2016) ******* ID# 10813 ****

 KOLOS B


 ****     INITIAL TRANSIENT SOLUTION       TEMPERATURE =   27.000 DEG C

 ****     CURRENT STEP                     PARAM W =   53.0000E-06


******************************************************************************



 NODE   VOLTAGE     NODE   VOLTAGE     NODE   VOLTAGE     NODE   VOLTAGE


(    1)    3.9983  (    2)     .8095  (   IN)    5.0000  (  OUT) 474.0E-06      

(  VDD)    5.0000  




    VOLTAGE SOURCE CURRENTS
    NAME         CURRENT

    VP          -8.502E-05
    VIN          0.000E+00

    TOTAL POWER DISSIPATION   4.25E-04  WATTS


WARNING(ORPSIM-15676): LAMBDA for MOSFET model PMOS0P5 is unusually large and might cause non-convergence

WARNING(ORPSIM-15676): LAMBDA for MOSFET model PMOS0P5 is unusually large and might cause non-convergence

**** 04/27/25 23:38:32 ******* PSpice Lite (March 2016) ******* ID# 10813 ****

 KOLOS B


 ****     INITIAL TRANSIENT SOLUTION       TEMPERATURE =   27.000 DEG C

 ****     CURRENT STEP                     PARAM W =   54.0000E-06


******************************************************************************



 NODE   VOLTAGE     NODE   VOLTAGE     NODE   VOLTAGE     NODE   VOLTAGE


(    1)    3.9983  (    2)     .8095  (   IN)    5.0000  (  OUT) 465.3E-06      

(  VDD)    5.0000  




    VOLTAGE SOURCE CURRENTS
    NAME         CURRENT

    VP          -8.502E-05
    VIN          0.000E+00

    TOTAL POWER DISSIPATION   4.25E-04  WATTS


WARNING(ORPSIM-15676): LAMBDA for MOSFET model PMOS0P5 is unusually large and might cause non-convergence

WARNING(ORPSIM-15676): LAMBDA for MOSFET model PMOS0P5 is unusually large and might cause non-convergence

**** 04/27/25 23:38:32 ******* PSpice Lite (March 2016) ******* ID# 10813 ****

 KOLOS B


 ****     INITIAL TRANSIENT SOLUTION       TEMPERATURE =   27.000 DEG C

 ****     CURRENT STEP                     PARAM W =   55.0000E-06


******************************************************************************



 NODE   VOLTAGE     NODE   VOLTAGE     NODE   VOLTAGE     NODE   VOLTAGE


(    1)    3.9983  (    2)     .8095  (   IN)    5.0000  (  OUT) 456.8E-06      

(  VDD)    5.0000  




    VOLTAGE SOURCE CURRENTS
    NAME         CURRENT

    VP          -8.502E-05
    VIN          0.000E+00

    TOTAL POWER DISSIPATION   4.25E-04  WATTS


WARNING(ORPSIM-15676): LAMBDA for MOSFET model PMOS0P5 is unusually large and might cause non-convergence

WARNING(ORPSIM-15676): LAMBDA for MOSFET model PMOS0P5 is unusually large and might cause non-convergence

**** 04/27/25 23:38:32 ******* PSpice Lite (March 2016) ******* ID# 10813 ****

 KOLOS B


 ****     INITIAL TRANSIENT SOLUTION       TEMPERATURE =   27.000 DEG C

 ****     CURRENT STEP                     PARAM W =   56.0000E-06


******************************************************************************



 NODE   VOLTAGE     NODE   VOLTAGE     NODE   VOLTAGE     NODE   VOLTAGE


(    1)    3.9983  (    2)     .8095  (   IN)    5.0000  (  OUT) 448.7E-06      

(  VDD)    5.0000  




    VOLTAGE SOURCE CURRENTS
    NAME         CURRENT

    VP          -8.502E-05
    VIN          0.000E+00

    TOTAL POWER DISSIPATION   4.25E-04  WATTS


WARNING(ORPSIM-15676): LAMBDA for MOSFET model PMOS0P5 is unusually large and might cause non-convergence

WARNING(ORPSIM-15676): LAMBDA for MOSFET model PMOS0P5 is unusually large and might cause non-convergence

**** 04/27/25 23:38:32 ******* PSpice Lite (March 2016) ******* ID# 10813 ****

 KOLOS B


 ****     INITIAL TRANSIENT SOLUTION       TEMPERATURE =   27.000 DEG C

 ****     CURRENT STEP                     PARAM W =   57.0000E-06


******************************************************************************



 NODE   VOLTAGE     NODE   VOLTAGE     NODE   VOLTAGE     NODE   VOLTAGE


(    1)    3.9983  (    2)     .8095  (   IN)    5.0000  (  OUT) 440.8E-06      

(  VDD)    5.0000  




    VOLTAGE SOURCE CURRENTS
    NAME         CURRENT

    VP          -8.502E-05
    VIN          0.000E+00

    TOTAL POWER DISSIPATION   4.25E-04  WATTS


WARNING(ORPSIM-15676): LAMBDA for MOSFET model PMOS0P5 is unusually large and might cause non-convergence

WARNING(ORPSIM-15676): LAMBDA for MOSFET model PMOS0P5 is unusually large and might cause non-convergence

**** 04/27/25 23:38:32 ******* PSpice Lite (March 2016) ******* ID# 10813 ****

 KOLOS B


 ****     INITIAL TRANSIENT SOLUTION       TEMPERATURE =   27.000 DEG C

 ****     CURRENT STEP                     PARAM W =   58.0000E-06


******************************************************************************



 NODE   VOLTAGE     NODE   VOLTAGE     NODE   VOLTAGE     NODE   VOLTAGE


(    1)    3.9983  (    2)     .8095  (   IN)    5.0000  (  OUT) 433.2E-06      

(  VDD)    5.0000  




    VOLTAGE SOURCE CURRENTS
    NAME         CURRENT

    VP          -8.502E-05
    VIN          0.000E+00

    TOTAL POWER DISSIPATION   4.25E-04  WATTS


WARNING(ORPSIM-15676): LAMBDA for MOSFET model PMOS0P5 is unusually large and might cause non-convergence

WARNING(ORPSIM-15676): LAMBDA for MOSFET model PMOS0P5 is unusually large and might cause non-convergence

**** 04/27/25 23:38:32 ******* PSpice Lite (March 2016) ******* ID# 10813 ****

 KOLOS B


 ****     INITIAL TRANSIENT SOLUTION       TEMPERATURE =   27.000 DEG C

 ****     CURRENT STEP                     PARAM W =   59.0000E-06


******************************************************************************



 NODE   VOLTAGE     NODE   VOLTAGE     NODE   VOLTAGE     NODE   VOLTAGE


(    1)    3.9983  (    2)     .8095  (   IN)    5.0000  (  OUT) 425.8E-06      

(  VDD)    5.0000  




    VOLTAGE SOURCE CURRENTS
    NAME         CURRENT

    VP          -8.502E-05
    VIN          0.000E+00

    TOTAL POWER DISSIPATION   4.25E-04  WATTS


WARNING(ORPSIM-15676): LAMBDA for MOSFET model PMOS0P5 is unusually large and might cause non-convergence

WARNING(ORPSIM-15676): LAMBDA for MOSFET model PMOS0P5 is unusually large and might cause non-convergence

**** 04/27/25 23:38:32 ******* PSpice Lite (March 2016) ******* ID# 10813 ****

 KOLOS B


 ****     INITIAL TRANSIENT SOLUTION       TEMPERATURE =   27.000 DEG C

 ****     CURRENT STEP                     PARAM W =   60.0000E-06


******************************************************************************



 NODE   VOLTAGE     NODE   VOLTAGE     NODE   VOLTAGE     NODE   VOLTAGE


(    1)    3.9983  (    2)     .8095  (   IN)    5.0000  (  OUT) 418.7E-06      

(  VDD)    5.0000  




    VOLTAGE SOURCE CURRENTS
    NAME         CURRENT

    VP          -8.502E-05
    VIN          0.000E+00

    TOTAL POWER DISSIPATION   4.25E-04  WATTS


WARNING(ORPSIM-15676): LAMBDA for MOSFET model PMOS0P5 is unusually large and might cause non-convergence

WARNING(ORPSIM-15676): LAMBDA for MOSFET model PMOS0P5 is unusually large and might cause non-convergence

**** 04/27/25 23:38:32 ******* PSpice Lite (March 2016) ******* ID# 10813 ****

 KOLOS B


 ****     INITIAL TRANSIENT SOLUTION       TEMPERATURE =   27.000 DEG C

 ****     CURRENT STEP                     PARAM W =   61.0000E-06


******************************************************************************



 NODE   VOLTAGE     NODE   VOLTAGE     NODE   VOLTAGE     NODE   VOLTAGE


(    1)    3.9983  (    2)     .8095  (   IN)    5.0000  (  OUT) 411.9E-06      

(  VDD)    5.0000  




    VOLTAGE SOURCE CURRENTS
    NAME         CURRENT

    VP          -8.502E-05
    VIN          0.000E+00

    TOTAL POWER DISSIPATION   4.25E-04  WATTS


WARNING(ORPSIM-15676): LAMBDA for MOSFET model PMOS0P5 is unusually large and might cause non-convergence

WARNING(ORPSIM-15676): LAMBDA for MOSFET model PMOS0P5 is unusually large and might cause non-convergence

**** 04/27/25 23:38:32 ******* PSpice Lite (March 2016) ******* ID# 10813 ****

 KOLOS B


 ****     INITIAL TRANSIENT SOLUTION       TEMPERATURE =   27.000 DEG C

 ****     CURRENT STEP                     PARAM W =   62.0000E-06


******************************************************************************



 NODE   VOLTAGE     NODE   VOLTAGE     NODE   VOLTAGE     NODE   VOLTAGE


(    1)    3.9983  (    2)     .8095  (   IN)    5.0000  (  OUT) 405.2E-06      

(  VDD)    5.0000  




    VOLTAGE SOURCE CURRENTS
    NAME         CURRENT

    VP          -8.502E-05
    VIN          0.000E+00

    TOTAL POWER DISSIPATION   4.25E-04  WATTS


WARNING(ORPSIM-15676): LAMBDA for MOSFET model PMOS0P5 is unusually large and might cause non-convergence

WARNING(ORPSIM-15676): LAMBDA for MOSFET model PMOS0P5 is unusually large and might cause non-convergence

**** 04/27/25 23:38:32 ******* PSpice Lite (March 2016) ******* ID# 10813 ****

 KOLOS B


 ****     INITIAL TRANSIENT SOLUTION       TEMPERATURE =   27.000 DEG C

 ****     CURRENT STEP                     PARAM W =   63.0000E-06


******************************************************************************



 NODE   VOLTAGE     NODE   VOLTAGE     NODE   VOLTAGE     NODE   VOLTAGE


(    1)    3.9983  (    2)     .8095  (   IN)    5.0000  (  OUT) 398.8E-06      

(  VDD)    5.0000  




    VOLTAGE SOURCE CURRENTS
    NAME         CURRENT

    VP          -8.502E-05
    VIN          0.000E+00

    TOTAL POWER DISSIPATION   4.25E-04  WATTS


WARNING(ORPSIM-15676): LAMBDA for MOSFET model PMOS0P5 is unusually large and might cause non-convergence

WARNING(ORPSIM-15676): LAMBDA for MOSFET model PMOS0P5 is unusually large and might cause non-convergence

**** 04/27/25 23:38:32 ******* PSpice Lite (March 2016) ******* ID# 10813 ****

 KOLOS B


 ****     INITIAL TRANSIENT SOLUTION       TEMPERATURE =   27.000 DEG C

 ****     CURRENT STEP                     PARAM W =   64.0000E-06


******************************************************************************



 NODE   VOLTAGE     NODE   VOLTAGE     NODE   VOLTAGE     NODE   VOLTAGE


(    1)    3.9983  (    2)     .8095  (   IN)    5.0000  (  OUT) 392.6E-06      

(  VDD)    5.0000  




    VOLTAGE SOURCE CURRENTS
    NAME         CURRENT

    VP          -8.502E-05
    VIN          0.000E+00

    TOTAL POWER DISSIPATION   4.25E-04  WATTS


WARNING(ORPSIM-15676): LAMBDA for MOSFET model PMOS0P5 is unusually large and might cause non-convergence

WARNING(ORPSIM-15676): LAMBDA for MOSFET model PMOS0P5 is unusually large and might cause non-convergence

**** 04/27/25 23:38:32 ******* PSpice Lite (March 2016) ******* ID# 10813 ****

 KOLOS B


 ****     INITIAL TRANSIENT SOLUTION       TEMPERATURE =   27.000 DEG C

 ****     CURRENT STEP                     PARAM W =   65.0000E-06


******************************************************************************



 NODE   VOLTAGE     NODE   VOLTAGE     NODE   VOLTAGE     NODE   VOLTAGE


(    1)    3.9983  (    2)     .8095  (   IN)    5.0000  (  OUT) 386.5E-06      

(  VDD)    5.0000  




    VOLTAGE SOURCE CURRENTS
    NAME         CURRENT

    VP          -8.502E-05
    VIN          0.000E+00

    TOTAL POWER DISSIPATION   4.25E-04  WATTS


WARNING(ORPSIM-15676): LAMBDA for MOSFET model PMOS0P5 is unusually large and might cause non-convergence

WARNING(ORPSIM-15676): LAMBDA for MOSFET model PMOS0P5 is unusually large and might cause non-convergence

**** 04/27/25 23:38:32 ******* PSpice Lite (March 2016) ******* ID# 10813 ****

 KOLOS B


 ****     INITIAL TRANSIENT SOLUTION       TEMPERATURE =   27.000 DEG C

 ****     CURRENT STEP                     PARAM W =   66.0000E-06


******************************************************************************



 NODE   VOLTAGE     NODE   VOLTAGE     NODE   VOLTAGE     NODE   VOLTAGE


(    1)    3.9983  (    2)     .8095  (   IN)    5.0000  (  OUT) 380.7E-06      

(  VDD)    5.0000  




    VOLTAGE SOURCE CURRENTS
    NAME         CURRENT

    VP          -8.502E-05
    VIN          0.000E+00

    TOTAL POWER DISSIPATION   4.25E-04  WATTS


WARNING(ORPSIM-15676): LAMBDA for MOSFET model PMOS0P5 is unusually large and might cause non-convergence

WARNING(ORPSIM-15676): LAMBDA for MOSFET model PMOS0P5 is unusually large and might cause non-convergence

**** 04/27/25 23:38:32 ******* PSpice Lite (March 2016) ******* ID# 10813 ****

 KOLOS B


 ****     INITIAL TRANSIENT SOLUTION       TEMPERATURE =   27.000 DEG C

 ****     CURRENT STEP                     PARAM W =   67.0000E-06


******************************************************************************



 NODE   VOLTAGE     NODE   VOLTAGE     NODE   VOLTAGE     NODE   VOLTAGE


(    1)    3.9983  (    2)     .8095  (   IN)    5.0000  (  OUT) 375.0E-06      

(  VDD)    5.0000  




    VOLTAGE SOURCE CURRENTS
    NAME         CURRENT

    VP          -8.502E-05
    VIN          0.000E+00

    TOTAL POWER DISSIPATION   4.25E-04  WATTS


WARNING(ORPSIM-15676): LAMBDA for MOSFET model PMOS0P5 is unusually large and might cause non-convergence

WARNING(ORPSIM-15676): LAMBDA for MOSFET model PMOS0P5 is unusually large and might cause non-convergence

**** 04/27/25 23:38:32 ******* PSpice Lite (March 2016) ******* ID# 10813 ****

 KOLOS B


 ****     INITIAL TRANSIENT SOLUTION       TEMPERATURE =   27.000 DEG C

 ****     CURRENT STEP                     PARAM W =   68.0000E-06


******************************************************************************



 NODE   VOLTAGE     NODE   VOLTAGE     NODE   VOLTAGE     NODE   VOLTAGE


(    1)    3.9983  (    2)     .8095  (   IN)    5.0000  (  OUT) 369.5E-06      

(  VDD)    5.0000  




    VOLTAGE SOURCE CURRENTS
    NAME         CURRENT

    VP          -8.502E-05
    VIN          0.000E+00

    TOTAL POWER DISSIPATION   4.25E-04  WATTS


WARNING(ORPSIM-15676): LAMBDA for MOSFET model PMOS0P5 is unusually large and might cause non-convergence

WARNING(ORPSIM-15676): LAMBDA for MOSFET model PMOS0P5 is unusually large and might cause non-convergence

**** 04/27/25 23:38:32 ******* PSpice Lite (March 2016) ******* ID# 10813 ****

 KOLOS B


 ****     INITIAL TRANSIENT SOLUTION       TEMPERATURE =   27.000 DEG C

 ****     CURRENT STEP                     PARAM W =   69.0000E-06


******************************************************************************



 NODE   VOLTAGE     NODE   VOLTAGE     NODE   VOLTAGE     NODE   VOLTAGE


(    1)    3.9983  (    2)     .8095  (   IN)    5.0000  (  OUT) 364.1E-06      

(  VDD)    5.0000  




    VOLTAGE SOURCE CURRENTS
    NAME         CURRENT

    VP          -8.502E-05
    VIN          0.000E+00

    TOTAL POWER DISSIPATION   4.25E-04  WATTS


