
**** 04/27/25 22:40:21 ******* PSpice Lite (March 2016) ******* ID# 10813 ****

 KOLOS A


 ****     CIRCUIT DESCRIPTION


******************************************************************************




.LIB "EVAL_TOS.LIB"

.PARAM CURRENT = 1U
.PARAM AMP = 1.17M
VP VDD 0 DC 5

*VIN IN 0 DC 707.034M AC 1 SIN(707.034M, {AMP}, 100K)
VIN IN 0 PULSE(0 5 1M)
IREF GATES 0 {CURRENT}

M1 1 GATES VDD VDD PMOS0P5 W=15U L=0.3U
M2 2 GATES VDD VDD PMOS0P5 W=15U L=0.3U
M3 GATES GATES 1 VDD PMOS0P5 W=15U L=0.3U
M4 OUT GATES 2 VDD PMOS0P5 W=15U L=0.3U

M5 OUT IN 0 0 NMOS0P5 W=30U L=0.3U

C1 OUT 0 200P
*.DC VIN 0 1 100u
*.STEP LIN PARAM CURRENT 0.1U 100U 0.1U
*.DC VIN 700M 710M 100N
*.AC DEC 10 1 1GHZ 
*.TRAN 0 100U 0 100N
*.STEP LIN PARAM AMP 100U 10M 10U
*.FOUR 100K V[OUT]
*.TF V[OUT] VIN

.TRAN 0 2M 0 10N

.PROBE
.END

WARNING(ORPSIM-15676): LAMBDA for MOSFET model PMOS0P5 is unusually large and might cause non-convergence

**** 04/27/25 22:40:21 ******* PSpice Lite (March 2016) ******* ID# 10813 ****

 KOLOS A


 ****     MOSFET MODEL PARAMETERS


******************************************************************************




               PMOS0P5         NMOS0P5         
               PMOS            NMOS            
       LEVEL    1               1            
           L  100.000000E-06  100.000000E-06 
           W  100.000000E-06  100.000000E-06 
          LD   90.000000E-09   80.000000E-09 
         VTO    -.8              .7          
          KP   41.801210E-06  167.204900E-06 
       GAMMA     .45             .5          
         PHI     .75             .8          
      LAMBDA     .2              .1          
          IS   10.000000E-15   10.000000E-15 
          JS    5.000000E-09   10.000000E-09 
          PB     .9              .9          
        PBSW     .9              .9          
          CJ  930.000000E-06  570.000000E-06 
        CJSW  170.000000E-12  120.000000E-12 
        MJSW     .35             .4          
        CGSO  350.000000E-12  400.000000E-12 
        CGDO  350.000000E-12  400.000000E-12 
        CGBO  380.000000E-12  380.000000E-12 
         TOX    9.500000E-09    9.500000E-09 
          XJ    0               0            
          UO  115             460            
       UCRIT   10.000000E+03   10.000000E+03 
      DIOMOD    1               1            
         VFB    0               0            
        LETA    0               0            
        WETA    0               0            
          U0    0               0            
        TEMP    0               0            
         VDD    5               5            
       XPART    0               0            


WARNING(ORPSIM-15676): LAMBDA for MOSFET model PMOS0P5 is unusually large and might cause non-convergence

**** 04/27/25 22:40:21 ******* PSpice Lite (March 2016) ******* ID# 10813 ****

 KOLOS A


 ****     INITIAL TRANSIENT SOLUTION       TEMPERATURE =   27.000 DEG C


******************************************************************************



 NODE   VOLTAGE     NODE   VOLTAGE     NODE   VOLTAGE     NODE   VOLTAGE


(    1)    4.9921  (    2)    5.0000  (   IN)    0.0000  (  OUT)    5.0000      

(  VDD)    5.0000  (GATES)    4.1719  




    VOLTAGE SOURCE CURRENTS
    NAME         CURRENT

    VP          -1.000E-06
    VIN          0.000E+00

    TOTAL POWER DISSIPATION   5.00E-06  WATTS



          JOB CONCLUDED

**** 04/27/25 22:40:21 ******* PSpice Lite (March 2016) ******* ID# 10813 ****

 KOLOS A


 ****     JOB STATISTICS SUMMARY


******************************************************************************



  Total job time (using Solver 1)   =        3.44

**** 04/27/25 22:40:24 ******* PSpice Lite (March 2016) ******* ID# 10813 ****

  


 ****     CIRCUIT DESCRIPTION


******************************************************************************



;iref = 0.1u kv = -7k
