
**** 03/22/25 13:23:49 ******* PSpice Lite (March 2016) ******* ID# 10813 ****

 Lab1


 ****     CIRCUIT DESCRIPTION


******************************************************************************




R1 1 2 80
R2 3 1 70
R3 2 0 60
R4 3 0 90

V1 2 3 2
I1 0 1 0.2

.DC V1 2 2 1
.OP
.PRINT DC V(R3) I(R4)
.END

**** 03/22/25 13:23:49 ******* PSpice Lite (March 2016) ******* ID# 10813 ****

 Lab1


 ****     DC TRANSFER CURVES               TEMPERATURE =   27.000 DEG C


******************************************************************************



  V1          V(R3)       I(R4)       

   2.000E+00   8.000E+00   6.667E-02



**** 03/22/25 13:23:49 ******* PSpice Lite (March 2016) ******* ID# 10813 ****

 Lab1


 ****     SMALL SIGNAL BIAS SOLUTION       TEMPERATURE =   27.000 DEG C


******************************************************************************



 NODE   VOLTAGE     NODE   VOLTAGE     NODE   VOLTAGE     NODE   VOLTAGE


(    1)   14.4000  (    2)    8.0000  (    3)    6.0000  




    VOLTAGE SOURCE CURRENTS
    NAME         CURRENT

    V1          -5.333E-02

    TOTAL POWER DISSIPATION   1.07E-01  WATTS


**** 03/22/25 13:23:49 ******* PSpice Lite (March 2016) ******* ID# 10813 ****

 Lab1


 ****     OPERATING POINT INFORMATION      TEMPERATURE =   27.000 DEG C


******************************************************************************





          JOB CONCLUDED

**** 03/22/25 13:23:49 ******* PSpice Lite (March 2016) ******* ID# 10813 ****

 Lab1


 ****     JOB STATISTICS SUMMARY


******************************************************************************



  Total job time (using Solver 1)   =        0.00
