
**** 03/22/25 13:31:58 ******* PSpice Lite (March 2016) ******* ID# 10813 ****

 Lab2


 ****     CIRCUIT DESCRIPTION


******************************************************************************




R1 2 1 100
R2 3 2 40
R3 0 3 170
R4 1 3 70
R5 2 0 50
R6 1 0 20

I1 0 1 1

.TF V(1) I1

.END

**** 03/22/25 13:31:58 ******* PSpice Lite (March 2016) ******* ID# 10813 ****

 Lab2


 ****     SMALL SIGNAL BIAS SOLUTION       TEMPERATURE =   27.000 DEG C


******************************************************************************



 NODE   VOLTAGE     NODE   VOLTAGE     NODE   VOLTAGE     NODE   VOLTAGE


(    1)   16.1350  (    2)    7.0191  (    3)    8.9882  




    VOLTAGE SOURCE CURRENTS
    NAME         CURRENT


    TOTAL POWER DISSIPATION   0.00E+00  WATTS






 ****     SMALL-SIGNAL CHARACTERISTICS


      V(1)/I1 =  1.613E+01

      INPUT RESISTANCE AT I1 =  1.613E+01

      OUTPUT RESISTANCE AT V(1) =  1.613E+01


          JOB CONCLUDED

**** 03/22/25 13:31:58 ******* PSpice Lite (March 2016) ******* ID# 10813 ****

 Lab2


 ****     JOB STATISTICS SUMMARY


******************************************************************************



  Total job time (using Solver 1)   =         .02
